
T051C 000:547 SEGGER J-Link V4.88 Log File (0001ms, 0264ms total)
T051C 000:547 DLL Compiled: Jul 15 2014 08:50:40 (0001ms, 0264ms total)
T051C 000:547 Logging started @ 2014-08-27 11:57 (0001ms, 0264ms total)
T051C 000:548 JLINK_SetWarnOutHandler(...) (0000ms, 0264ms total)
T051C 000:548 JLINK_OpenEx(...)
Firmware: J-Link OB-SAM3U128 V1 compiled Dec 11 2013 20:20:11
Hardware: V1.00
S/N: 480207049  returns O.K. (0264ms, 0528ms total)
T051C 000:812 JLINK_SetErrorOutHandler(...) (0000ms, 0528ms total)
T051C 000:812 JLINK_ExecCommand("ProjectFile = "D:\Nordic Semiconductor\nRF51 SDK_v6.0.0.43681\Nordic\nrf51822\Board\pca10001\s110\nrf51-back-rec\arm\JLinkSettings.ini"", ...)  returns 0x00 (0002ms, 0530ms total)
T051C 000:814 JLINK_ExecCommand("Device = nRF51822_xxAA", ...)Device "NRF51822_XXAA" selected (257 KB flash, 16 KB RAM).  returns 0x00 (0002ms, 0533ms total)
T051C 000:817 JLINK_ExecCommand("DisableConnectionTimeout", ...)  returns 0x01 (0000ms, 0533ms total)
T051C 000:817 JLINK_GetHardwareVersion()  returns 0x2710 (0001ms, 0534ms total)
T051C 000:818 JLINK_GetDLLVersion()  returns 48800 (0000ms, 0534ms total)
T051C 000:818 JLINK_GetFirmwareString(...) (0000ms, 0534ms total)
T051C 000:823 JLINK_GetDLLVersion()  returns 48800 (0000ms, 0534ms total)
T051C 000:823 JLINK_GetCompileDateTime() (0000ms, 0534ms total)
T051C 000:823 JLINK_GetFirmwareString(...) (0000ms, 0534ms total)
T051C 000:824 JLINK_GetHardwareVersion()  returns 0x2710 (0000ms, 0534ms total)
T051C 000:825 JLINK_TIF_Select(JLINKARM_TIF_SWD)  returns 0x00 (0002ms, 0536ms total)
T051C 000:827 JLINK_SetSpeed(5000) (0001ms, 0537ms total)
T051C 000:828 JLINK_GetId() >0x108 TIF>Found SWD-DP with ID 0x0BB11477 >0x35 TIF> >0x0D TIF> >0x28 TIF> >0x0D TIF> >0x28 TIF> >0x35 TIF> >0x0D TIF> >0x28 TIF> >0x35 TIF> >0x35 TIF> >0x35 TIF> >0x0D TIF> >0x28 TIF> >0x0D TIF> >0x28 TIF> >0x0D TIF> >0x28 TIF> >0x35 TIF> >0x35 TIF> >0x35 TIF> >0x0D TIF> >0x28 TIF> >0x0D TIF> >0x28 TIF> >0x35 TIF> >0x0D TIF> >0x28 TIF> >0x0D TIF> >0x28 TIF> >0x0D TIF> >0x28 TIF> >0x35 TIF> >0x35 TIF> >0x0D TIF> >0x28 TIF> >0x35 TIF> >0x35 TIF>
Found Cortex-M0 r0p0, Little endian. -- CPU_WriteMem(4 bytes @ 0xE0002000) -- CPU_ReadMem(4 bytes @ 0xE000EDF0) -- CPU_ReadMem(4 bytes @ 0xE0002000)FPUnit: 4 code (BP) slots and 0 literal slots -- CPU_ReadMem(4 bytes @ 0xE000EDFC) -- CPU_ReadMem(4 bytes @ 0xE0001000) -- CPU_WriteMem(4 bytes @ 0xE0001000) -- CPU_ReadMem(4 bytes @ 0xE00FF018) >0x35 TIF>  returns 0x0BB11477 (0026ms, 0563ms total)
T051C 000:854 JLINK_GetDeviceFamily()  returns 6 (0000ms, 0563ms total)
T051C 000:854 JLINK_ReadMem (0xE00FFFF0, 0x0010 Bytes, ...) -- CPU is running -- CPU_ReadMem(16 bytes @ 0xE00FFFF0) - Data: 0D 00 00 00 10 00 00 00 05 00 00 00 B1 00 00 00  returns 0x00 (0001ms, 0564ms total)
T051C 000:855 JLINK_ReadMem (0xE00FFFD0, 0x0020 Bytes, ...) -- CPU is running -- CPU_ReadMem(32 bytes @ 0xE00FFFD0) - Data: 04 00 00 00 00 00 00 00 00 00 00 00 00 00 00 00 ...  returns 0x00 (0001ms, 0565ms total)
T051C 000:856 JLINK_ReadMem (0xE00FF000, 0x0018 Bytes, ...) -- CPU is running -- CPU_ReadMem(24 bytes @ 0xE00FF000) - Data: 03 F0 F0 FF 03 20 F0 FF 03 30 F0 FF 00 00 00 00 ...  returns 0x00 (0000ms, 0565ms total)
T051C 000:856 JLINK_ReadMemU32(0xE000ED00, 0x0001 Items, ...) -- CPU is running -- CPU_ReadMem(4 bytes @ 0xE000ED00) - Data: 00 C2 0C 41  returns 0x01 (0001ms, 0566ms total)
T051C 000:857 JLINK_SetResetType(JLINKARM_RESET_TYPE_NORMAL)  returns JLINKARM_RESET_TYPE_NORMAL (0000ms, 0566ms total)
T051C 000:857 JLINK_Reset() -- CPU is running -- CPU_WriteMem(4 bytes @ 0xE000EDF0) -- CPU is running -- CPU_WriteMem(4 bytes @ 0xE000EDFC) >0x35 TIF> -- CPU is running -- CPU_WriteMem(4 bytes @ 0xE000ED0C) -- CPU is running -- CPU_ReadMem(4 bytes @ 0xE000EDF0) -- CPU is running -- CPU_ReadMem(4 bytes @ 0xE000EDF0) -- CPU is running -- CPU_WriteMem(4 bytes @ 0xE000EDF0) -- CPU is running -- CPU_WriteMem(4 bytes @ 0xE000EDFC) -- CPU is running -- CPU_ReadMem(4 bytes @ 0xE000EDF0)
 -- CPU_WriteMem(4 bytes @ 0xE0002000) -- CPU_ReadMem(4 bytes @ 0xE000EDFC) -- CPU_ReadMem(4 bytes @ 0xE0001000) -- CPU_WriteMem(4 bytes @ 0xE0001000) (0020ms, 0586ms total)
T051C 000:877 JLINK_ReadReg(R15 (PC))  returns 0x000006D0 (0000ms, 0586ms total)
T051C 000:877 JLINK_ReadReg(XPSR)  returns 0xC1000000 (0000ms, 0586ms total)
T051C 000:877 JLINK_Halt()  returns 0x00 (0000ms, 0586ms total)
T051C 000:877 JLINK_IsHalted()  returns TRUE (0000ms, 0586ms total)
T051C 000:877 JLINK_ReadMemU32(0xE000EDF0, 0x0001 Items, ...) -- CPU_ReadMem(4 bytes @ 0xE000EDF0) - Data: 03 00 03 00  returns 0x01 (0001ms, 0587ms total)
T051C 000:878 JLINK_WriteU32(0xE000EDF0, 0xA05F0003) -- CPU_WriteMem(4 bytes @ 0xE000EDF0)  returns 0x00 (0001ms, 0588ms total)
T051C 000:879 JLINK_WriteU32(0xE000EDFC, 0x01000000) -- CPU_WriteMem(4 bytes @ 0xE000EDFC)  returns 0x00 (0000ms, 0588ms total)
T051C 000:880 JLINK_GetHWStatus(...)  returns 0x00 (0000ms, 0588ms total)
T051C 000:881 JLINK_GetNumBPUnits(Type = 0xFFFFFF00)  returns 0x04 (0000ms, 0588ms total)
T051C 000:881 JLINK_GetNumBPUnits(Type = 0xF0)  returns 0x2000 (0000ms, 0588ms total)
T051C 000:881 JLINK_GetNumWPUnits()  returns 0x02 (0000ms, 0588ms total)
T051C 000:881 JLINK_GetSpeed()  returns 0x1388 (0000ms, 0588ms total)
T051C 000:881 JLINK_ReadMemU32(0xE000E004, 0x0001 Items, ...) -- CPU_ReadMem(4 bytes @ 0xE000E004) - Data: 00 00 00 00  returns 0x01 (0001ms, 0589ms total)
T051C 000:882 JLINK_ReadReg(R15 (PC))  returns 0x000006D0 (0000ms, 0589ms total)
T051C 000:882 JLINK_ReadReg(XPSR)  returns 0xC1000000 (0000ms, 0589ms total)
T051C 000:970 JLINK_SetResetType(JLINKARM_RESET_TYPE_NORMAL)  returns JLINKARM_RESET_TYPE_NORMAL (0000ms, 0589ms total)
T051C 000:970 JLINK_Reset() -- CPU_WriteMem(4 bytes @ 0xE000EDF0) -- CPU_WriteMem(4 bytes @ 0xE000EDFC) >0x35 TIF> -- CPU_WriteMem(4 bytes @ 0xE000ED0C) -- CPU_ReadMem(4 bytes @ 0xE000EDF0) -- CPU_ReadMem(4 bytes @ 0xE000EDF0) -- CPU_WriteMem(4 bytes @ 0xE000EDF0) -- CPU_WriteMem(4 bytes @ 0xE000EDFC) -- CPU is running -- CPU_ReadMem(4 bytes @ 0xE000EDF0) -- CPU_WriteMem(4 bytes @ 0xE0002000) -- CPU_ReadMem(4 bytes @ 0xE000EDFC) -- CPU_ReadMem(4 bytes @ 0xE0001000) -- CPU_WriteMem(4 bytes @ 0xE0001000)
 (0020ms, 0609ms total)
T051C 000:990 JLINK_ReadReg(R15 (PC))  returns 0x000006D0 (0000ms, 0609ms total)
T051C 000:990 JLINK_ReadReg(XPSR)  returns 0xC1000000 (0000ms, 0609ms total)
T051C 000:990 JLINK_ReadMem (0x000006D0, 0x003C Bytes, ...) -- CPU_ReadMem(128 bytes @ 0x000006C0) -- Updating C cache (128 bytes @ 0x000006C0) -- Read from C cache (60 bytes @ 0x000006D0) - Data: 16 49 17 4C 24 68 8C 42 0B D1 16 4B 1B 68 99 42 ...  returns 0x00 (0002ms, 0611ms total)
T0E98 001:719 JLINK_SetBPEx(Addr = 0x0001639E, Type = 0xFFFFFFF2)  returns 0x00000001 (0000ms, 0611ms total)
T0E98 001:719 JLINK_SetBPEx(Addr = 0x000163F0, Type = 0xFFFFFFF2)  returns 0x00000002 (0000ms, 0611ms total)
T0E98 001:719 JLINK_SetBPEx(Addr = 0x00016A7E, Type = 0xFFFFFFF2)  returns 0x00000003 (0000ms, 0611ms total)
T0E98 001:719 JLINK_Go() -- CPU_WriteMem(4 bytes @ 0xE0002000) -- CPU_WriteMem(4 bytes @ 0xE0002008) -- CPU_WriteMem(4 bytes @ 0xE0002000) -- CPU_WriteMem(4 bytes @ 0xE000200C) -- CPU_WriteMem(4 bytes @ 0xE0002000) -- CPU_WriteMem(4 bytes @ 0xE0002010) -- CPU_WriteMem(4 bytes @ 0xE0002014) -- CPU_WriteMem(4 bytes @ 0xE0001004) (0007ms, 0618ms total)
T0E98 001:826 JLINK_IsHalted()  returns TRUE (0002ms, 0620ms total)
T0E98 001:829 JLINK_Halt()  returns 0x00 (0000ms, 0618ms total)
T0E98 001:829 JLINK_IsHalted()  returns TRUE (0000ms, 0618ms total)
T0E98 001:829 JLINK_IsHalted()  returns TRUE (0000ms, 0618ms total)
T0E98 001:829 JLINK_IsHalted()  returns TRUE (0000ms, 0618ms total)
T0E98 001:829 JLINK_ReadReg(R15 (PC))  returns 0x0001639E (0000ms, 0618ms total)
T0E98 001:829 JLINK_ReadReg(XPSR)  returns 0x01000000 (0000ms, 0618ms total)
T0E98 001:829 JLINK_ClrBPEx(BPHandle = 0x00000001)  returns 0x00 (0000ms, 0618ms total)
T0E98 001:829 JLINK_ClrBPEx(BPHandle = 0x00000002)  returns 0x00 (0000ms, 0618ms total)
T0E98 001:829 JLINK_ClrBPEx(BPHandle = 0x00000003)  returns 0x00 (0000ms, 0618ms total)
T0E98 001:829 JLINK_ReadMemU32(0xE000ED30, 0x0001 Items, ...) -- CPU_ReadMem(4 bytes @ 0xE000ED30) - Data: 03 00 00 00  returns 0x01 (0001ms, 0619ms total)
T0E98 001:830 JLINK_ReadMemU32(0xE0001028, 0x0001 Items, ...) -- CPU_ReadMem(4 bytes @ 0xE0001028) - Data: 00 00 00 00  returns 0x01 (0001ms, 0620ms total)
T0E98 001:831 JLINK_ReadMemU32(0xE0001038, 0x0001 Items, ...) -- CPU_ReadMem(4 bytes @ 0xE0001038) - Data: 00 00 00 00  returns 0x01 (0000ms, 0620ms total)
T0E98 001:832 JLINK_ReadReg(R0)  returns 0x20002A28 (0000ms, 0620ms total)
T0E98 001:832 JLINK_ReadReg(R1)  returns 0x20003228 (0000ms, 0620ms total)
T0E98 001:832 JLINK_ReadReg(R2)  returns 0x20003228 (0000ms, 0620ms total)
T0E98 001:832 JLINK_ReadReg(R3)  returns 0x20003228 (0000ms, 0620ms total)
T0E98 001:832 JLINK_ReadReg(R4)  returns 0x0001D068 (0000ms, 0620ms total)
T0E98 001:832 JLINK_ReadReg(R5)  returns 0x200029C8 (0000ms, 0620ms total)
T0E98 001:832 JLINK_ReadReg(R6)  returns 0x00000000 (0000ms, 0620ms total)
T0E98 001:832 JLINK_ReadReg(R7)  returns 0x00000000 (0000ms, 0620ms total)
T0E98 001:832 JLINK_ReadReg(R8)  returns 0xFFFFFFFF (0000ms, 0620ms total)
T0E98 001:832 JLINK_ReadReg(R9)  returns 0xFFFFFFFF (0000ms, 0620ms total)
T0E98 001:832 JLINK_ReadReg(R10)  returns 0x0001D068 (0000ms, 0620ms total)
T0E98 001:832 JLINK_ReadReg(R11)  returns 0x0001D068 (0000ms, 0620ms total)
T0E98 001:832 JLINK_ReadReg(R12)  returns 0xFFFFFFFF (0000ms, 0620ms total)
T0E98 001:832 JLINK_ReadReg(R13 (SP))  returns 0x20003A28 (0000ms, 0620ms total)
T0E98 001:832 JLINK_ReadReg(R14)  returns 0x0001612F (0000ms, 0620ms total)
T0E98 001:832 JLINK_ReadReg(R15 (PC))  returns 0x0001639E (0000ms, 0620ms total)
T0E98 001:832 JLINK_ReadReg(XPSR)  returns 0x01000000 (0000ms, 0620ms total)
T0E98 001:832 JLINK_ReadReg(MSP)  returns 0x20003A28 (0001ms, 0621ms total)
T0E98 001:833 JLINK_ReadReg(PSP)  returns 0xFFFFFFFC (0000ms, 0621ms total)
T0E98 001:833 JLINK_ReadReg(CFBP)  returns 0x00000000 (0000ms, 0621ms total)
T051C 001:836 JLINK_ReadMem (0x20003A20, 0x0004 Bytes, ...) -- CPU_ReadMem(64 bytes @ 0x20003A00) -- Updating C cache (64 bytes @ 0x20003A00) -- Read from C cache (4 bytes @ 0x20003A20) - Data: 68 D0 01 00  returns 0x00 (0002ms, 0623ms total)
T051C 001:838 JLINK_ReadMem (0x00000000, 0x0004 Bytes, ...) -- CPU_ReadMem(64 bytes @ 0x00000000) -- Updating C cache (64 bytes @ 0x00000000) -- Read from C cache (4 bytes @ 0x00000000) - Data: C0 07 00 00  returns 0x00 (0001ms, 0624ms total)
T051C 001:844 JLINK_ReadMem (0x0001639C, 0x003C Bytes, ...) -- CPU_ReadMem(128 bytes @ 0x00016380) -- Updating C cache (128 bytes @ 0x00016380) -- Read from C cache (60 bytes @ 0x0001639C) - Data: 70 BD 08 B5 00 F0 A7 FE 12 20 00 F0 56 F8 13 20 ...  returns 0x00 (0002ms, 0626ms total)
T0E98 003:911 JLINK_SetBPEx(Addr = 0x000163F0, Type = 0xFFFFFFF2)  returns 0x00000004 (0001ms, 0627ms total)
T0E98 003:912 JLINK_SetBPEx(Addr = 0x00016A7E, Type = 0xFFFFFFF2)  returns 0x00000005 (0000ms, 0627ms total)
T0E98 003:912 JLINK_Go() -- CPU_WriteMem(4 bytes @ 0xE0002000) -- CPU_WriteMem(4 bytes @ 0xE0002000) -- CPU_WriteMem(4 bytes @ 0xE0002008) -- CPU_WriteMem(4 bytes @ 0xE000200C) -- CPU_WriteMem(4 bytes @ 0xE0002010) (0003ms, 0630ms total)
T0E98 004:015 JLINK_IsHalted()  returns FALSE (0000ms, 0630ms total)
T0E98 004:117 JLINK_IsHalted()  returns FALSE (0000ms, 0630ms total)
T0E98 004:218 JLINK_IsHalted()  returns FALSE (0000ms, 0630ms total)
T0E98 004:320 JLINK_IsHalted()  returns TRUE (0002ms, 0632ms total)
T0E98 004:322 JLINK_Halt()  returns 0x00 (0000ms, 0630ms total)
T0E98 004:322 JLINK_IsHalted()  returns TRUE (0000ms, 0630ms total)
T0E98 004:322 JLINK_IsHalted()  returns TRUE (0000ms, 0630ms total)
T0E98 004:322 JLINK_IsHalted()  returns TRUE (0000ms, 0630ms total)
T0E98 004:322 JLINK_ReadReg(R15 (PC))  returns 0x000163F0 (0000ms, 0630ms total)
T0E98 004:322 JLINK_ReadReg(XPSR)  returns 0x21000000 (0000ms, 0630ms total)
T0E98 004:322 JLINK_ClrBPEx(BPHandle = 0x00000004)  returns 0x00 (0000ms, 0630ms total)
T0E98 004:322 JLINK_ClrBPEx(BPHandle = 0x00000005)  returns 0x00 (0000ms, 0630ms total)
T0E98 004:322 JLINK_ReadMemU32(0xE000ED30, 0x0001 Items, ...) -- CPU_ReadMem(4 bytes @ 0xE000ED30) - Data: 03 00 00 00  returns 0x01 (0001ms, 0631ms total)
T0E98 004:323 JLINK_ReadMemU32(0xE0001028, 0x0001 Items, ...) -- CPU_ReadMem(4 bytes @ 0xE0001028) - Data: 00 00 00 00  returns 0x01 (0001ms, 0632ms total)
T0E98 004:324 JLINK_ReadMemU32(0xE0001038, 0x0001 Items, ...) -- CPU_ReadMem(4 bytes @ 0xE0001038) - Data: 00 00 00 00  returns 0x01 (0000ms, 0632ms total)
T0E98 004:324 JLINK_ReadReg(R0)  returns 0x00000000 (0000ms, 0632ms total)
T0E98 004:324 JLINK_ReadReg(R1)  returns 0x01000080 (0000ms, 0632ms total)
T0E98 004:324 JLINK_ReadReg(R2)  returns 0x00000000 (0000ms, 0632ms total)
T0E98 004:324 JLINK_ReadReg(R3)  returns 0x00000000 (0001ms, 0633ms total)
T0E98 004:325 JLINK_ReadReg(R4)  returns 0x0001D068 (0000ms, 0633ms total)
T0E98 004:325 JLINK_ReadReg(R5)  returns 0x00000000 (0000ms, 0633ms total)
T0E98 004:325 JLINK_ReadReg(R6)  returns 0x00000000 (0000ms, 0633ms total)
T0E98 004:325 JLINK_ReadReg(R7)  returns 0x00000000 (0000ms, 0633ms total)
T0E98 004:325 JLINK_ReadReg(R8)  returns 0xFFFFFFFF (0000ms, 0633ms total)
T0E98 004:325 JLINK_ReadReg(R9)  returns 0xFFFFFFFF (0000ms, 0633ms total)
T0E98 004:325 JLINK_ReadReg(R10)  returns 0x0001D068 (0000ms, 0633ms total)
T0E98 004:325 JLINK_ReadReg(R11)  returns 0x0001D068 (0000ms, 0633ms total)
T0E98 004:325 JLINK_ReadReg(R12)  returns 0xFFFFFFFF (0000ms, 0633ms total)
T0E98 004:325 JLINK_ReadReg(R13 (SP))  returns 0x20003A20 (0000ms, 0633ms total)
T0E98 004:325 JLINK_ReadReg(R14)  returns 0x000167E9 (0000ms, 0633ms total)
T0E98 004:325 JLINK_ReadReg(R15 (PC))  returns 0x000163F0 (0000ms, 0633ms total)
T0E98 004:325 JLINK_ReadReg(XPSR)  returns 0x21000000 (0000ms, 0633ms total)
T0E98 004:325 JLINK_ReadReg(MSP)  returns 0x20003A20 (0000ms, 0633ms total)
T0E98 004:325 JLINK_ReadReg(PSP)  returns 0xFFFFFFFC (0000ms, 0633ms total)
T0E98 004:325 JLINK_ReadReg(CFBP)  returns 0x00000000 (0000ms, 0633ms total)
T051C 004:325 JLINK_ReadMem (0x20003A24, 0x0004 Bytes, ...) -- CPU_ReadMem(64 bytes @ 0x20003A00) -- Updating C cache (64 bytes @ 0x20003A00) -- Read from C cache (4 bytes @ 0x20003A24) - Data: 2F 61 01 00  returns 0x00 (0001ms, 0634ms total)
T051C 004:326 JLINK_ReadMem (0x20003A20, 0x0004 Bytes, ...) -- Read from C cache (4 bytes @ 0x20003A20) - Data: 04 00 00 00  returns 0x00 (0000ms, 0634ms total)
T051C 004:326 JLINK_ReadMem (0x00000000, 0x0004 Bytes, ...) -- CPU_ReadMem(64 bytes @ 0x00000000) -- Updating C cache (64 bytes @ 0x00000000) -- Read from C cache (4 bytes @ 0x00000000) - Data: C0 07 00 00  returns 0x00 (0001ms, 0635ms total)
T051C 004:330 JLINK_ReadMem (0x000163EC, 0x0014 Bytes, ...) -- CPU_ReadMem(64 bytes @ 0x000163C0) -- Updating C cache (64 bytes @ 0x000163C0) -- Read from C cache (20 bytes @ 0x000163EC) - Data: 01 20 36 DF 00 F0 85 F9 00 F0 0C FA 00 F0 47 FB ...  returns 0x00 (0001ms, 0636ms total)
T051C 004:331 JLINK_ReadMem (0x00016400, 0x0028 Bytes, ...) -- CPU_ReadMem(64 bytes @ 0x00016400) -- Updating C cache (64 bytes @ 0x00016400) -- Read from C cache (40 bytes @ 0x00016400) - Data: 00 F0 82 FE 00 F0 95 FE 00 F0 D2 F8 06 F0 1B FA ...  returns 0x00 (0001ms, 0637ms total)
T0E98 006:032 JLINK_Step() -- Read from C cache (2 bytes @ 0x000163F0) -- CPU_ReadMem(4 bytes @ 0xE0001004) -- Read from C cache (2 bytes @ 0x000163F2) -- Simulated  returns 0x00 (0002ms, 0639ms total)
T0E98 006:034 JLINK_ReadReg(R15 (PC))  returns 0x000166FE (0000ms, 0639ms total)
T0E98 006:034 JLINK_ReadReg(XPSR)  returns 0x21000000 (0000ms, 0639ms total)
T0E98 006:035 JLINK_ReadReg(R0)  returns 0x00000000 (0000ms, 0639ms total)
T0E98 006:035 JLINK_ReadReg(R1)  returns 0x01000080 (0000ms, 0639ms total)
T0E98 006:035 JLINK_ReadReg(R2)  returns 0x00000000 (0000ms, 0639ms total)
T0E98 006:035 JLINK_ReadReg(R3)  returns 0x00000000 (0000ms, 0639ms total)
T0E98 006:035 JLINK_ReadReg(R4)  returns 0x0001D068 (0000ms, 0639ms total)
T0E98 006:035 JLINK_ReadReg(R5)  returns 0x00000000 (0000ms, 0639ms total)
T0E98 006:035 JLINK_ReadReg(R6)  returns 0x00000000 (0000ms, 0639ms total)
T0E98 006:035 JLINK_ReadReg(R7)  returns 0x00000000 (0000ms, 0639ms total)
T0E98 006:035 JLINK_ReadReg(R8)  returns 0xFFFFFFFF (0000ms, 0639ms total)
T0E98 006:035 JLINK_ReadReg(R9)  returns 0xFFFFFFFF (0000ms, 0639ms total)
T0E98 006:035 JLINK_ReadReg(R10)  returns 0x0001D068 (0000ms, 0639ms total)
T0E98 006:035 JLINK_ReadReg(R11)  returns 0x0001D068 (0000ms, 0639ms total)
T0E98 006:036 JLINK_ReadReg(R12)  returns 0xFFFFFFFF (0000ms, 0640ms total)
T0E98 006:036 JLINK_ReadReg(R13 (SP))  returns 0x20003A20 (0000ms, 0640ms total)
T0E98 006:036 JLINK_ReadReg(R14)  returns 0x000163F5 (0000ms, 0640ms total)
T0E98 006:036 JLINK_ReadReg(R15 (PC))  returns 0x000166FE (0000ms, 0640ms total)
T0E98 006:036 JLINK_ReadReg(XPSR)  returns 0x21000000 (0000ms, 0640ms total)
T0E98 006:036 JLINK_ReadReg(MSP)  returns 0x20003A20 (0000ms, 0640ms total)
T0E98 006:036 JLINK_ReadReg(PSP)  returns 0xFFFFFFFC (0000ms, 0640ms total)
T0E98 006:036 JLINK_ReadReg(CFBP)  returns 0x00000000 (0000ms, 0640ms total)
T051C 006:041 JLINK_ReadMem (0x20003A24, 0x0004 Bytes, ...) -- Read from C cache (4 bytes @ 0x20003A24) - Data: 2F 61 01 00  returns 0x00 (0000ms, 0640ms total)
T051C 006:042 JLINK_ReadMem (0x00000000, 0x0004 Bytes, ...) -- Read from C cache (4 bytes @ 0x00000000) - Data: C0 07 00 00  returns 0x00 (0000ms, 0640ms total)
T051C 006:043 JLINK_ReadMem (0x20003A20, 0x0004 Bytes, ...) -- Read from C cache (4 bytes @ 0x20003A20) - Data: 04 00 00 00  returns 0x00 (0000ms, 0640ms total)
T051C 006:056 JLINK_ReadMem (0x000166FC, 0x003C Bytes, ...) -- CPU_ReadMem(128 bytes @ 0x000166C0) -- Updating C cache (128 bytes @ 0x000166C0) -- Read from C cache (60 bytes @ 0x000166FC) - Data: 70 47 70 B5 01 21 C9 03 3A 48 02 F0 47 FF 04 46 ...  returns 0x00 (0001ms, 0641ms total)
T051C 008:591 JLINK_ReadMem (0x2000200C, 0x0004 Bytes, ...) -- CPU_ReadMem(64 bytes @ 0x20002000) -- Updating C cache (64 bytes @ 0x20002000) -- Read from C cache (4 bytes @ 0x2000200C) - Data: 00 00 00 00  returns 0x00 (0002ms, 0643ms total)
T051C 008:593 JLINK_ReadMem (0x20002010, 0x0004 Bytes, ...) -- Read from C cache (4 bytes @ 0x20002010) - Data: 00 00 00 00  returns 0x00 (0000ms, 0643ms total)
T0E98 015:302 JLINK_Step() -- Read from C cache (2 bytes @ 0x000166FE) -- CPU_WriteMem(16 bytes @ 0x20003A10) -- Simulated  returns 0x00 (0002ms, 0645ms total)
T0E98 015:305 JLINK_ReadReg(R15 (PC))  returns 0x00016700 (0000ms, 0645ms total)
T0E98 015:305 JLINK_ReadReg(XPSR)  returns 0x21000000 (0000ms, 0645ms total)
T0E98 015:305 JLINK_ReadReg(R0)  returns 0x00000000 (0000ms, 0645ms total)
T0E98 015:305 JLINK_ReadReg(R1)  returns 0x01000080 (0000ms, 0645ms total)
T0E98 015:305 JLINK_ReadReg(R2)  returns 0x00000000 (0000ms, 0645ms total)
T0E98 015:305 JLINK_ReadReg(R3)  returns 0x00000000 (0000ms, 0645ms total)
T0E98 015:305 JLINK_ReadReg(R4)  returns 0x0001D068 (0000ms, 0645ms total)
T0E98 015:305 JLINK_ReadReg(R5)  returns 0x00000000 (0000ms, 0645ms total)
T0E98 015:305 JLINK_ReadReg(R6)  returns 0x00000000 (0000ms, 0645ms total)
T0E98 015:305 JLINK_ReadReg(R7)  returns 0x00000000 (0001ms, 0646ms total)
T0E98 015:306 JLINK_ReadReg(R8)  returns 0xFFFFFFFF (0000ms, 0646ms total)
T0E98 015:306 JLINK_ReadReg(R9)  returns 0xFFFFFFFF (0000ms, 0646ms total)
T0E98 015:306 JLINK_ReadReg(R10)  returns 0x0001D068 (0000ms, 0646ms total)
T0E98 015:306 JLINK_ReadReg(R11)  returns 0x0001D068 (0000ms, 0646ms total)
T0E98 015:306 JLINK_ReadReg(R12)  returns 0xFFFFFFFF (0000ms, 0646ms total)
T0E98 015:306 JLINK_ReadReg(R13 (SP))  returns 0x20003A10 (0000ms, 0646ms total)
T0E98 015:306 JLINK_ReadReg(R14)  returns 0x000163F5 (0000ms, 0646ms total)
T0E98 015:306 JLINK_ReadReg(R15 (PC))  returns 0x00016700 (0000ms, 0646ms total)
T0E98 015:306 JLINK_ReadReg(XPSR)  returns 0x21000000 (0000ms, 0646ms total)
T0E98 015:306 JLINK_ReadReg(MSP)  returns 0x20003A10 (0000ms, 0646ms total)
T0E98 015:306 JLINK_ReadReg(PSP)  returns 0xFFFFFFFC (0000ms, 0646ms total)
T0E98 015:306 JLINK_ReadReg(CFBP)  returns 0x00000000 (0000ms, 0646ms total)
T051C 015:313 JLINK_ReadMem (0x20003A1C, 0x0004 Bytes, ...) -- CPU_ReadMem(64 bytes @ 0x20003A00) -- Updating C cache (64 bytes @ 0x20003A00) -- Read from C cache (4 bytes @ 0x20003A1C) - Data: F5 63 01 00  returns 0x00 (0001ms, 0647ms total)
T051C 015:314 JLINK_ReadMem (0x20003A10, 0x0004 Bytes, ...) -- Read from C cache (4 bytes @ 0x20003A10) - Data: 68 D0 01 00  returns 0x00 (0000ms, 0647ms total)
T051C 015:314 JLINK_ReadMem (0x20003A14, 0x0004 Bytes, ...) -- Read from C cache (4 bytes @ 0x20003A14) - Data: 00 00 00 00  returns 0x00 (0000ms, 0647ms total)
T051C 015:314 JLINK_ReadMem (0x20003A18, 0x0004 Bytes, ...) -- Read from C cache (4 bytes @ 0x20003A18) - Data: 00 00 00 00  returns 0x00 (0000ms, 0647ms total)
T051C 015:314 JLINK_ReadMem (0x20003A24, 0x0004 Bytes, ...) -- Read from C cache (4 bytes @ 0x20003A24) - Data: 2F 61 01 00  returns 0x00 (0000ms, 0647ms total)
T051C 015:314 JLINK_ReadMem (0x00000000, 0x0004 Bytes, ...) -- Read from C cache (4 bytes @ 0x00000000) - Data: C0 07 00 00  returns 0x00 (0000ms, 0647ms total)
T051C 015:315 JLINK_ReadMem (0x20003A20, 0x0004 Bytes, ...) -- Read from C cache (4 bytes @ 0x20003A20) - Data: 04 00 00 00  returns 0x00 (0000ms, 0648ms total)
T051C 015:319 JLINK_ReadMem (0x2000200C, 0x0004 Bytes, ...) -- Read from C cache (4 bytes @ 0x2000200C) - Data: 00 00 00 00  returns 0x00 (0000ms, 0648ms total)
T051C 015:319 JLINK_ReadMem (0x20002010, 0x0004 Bytes, ...) -- Read from C cache (4 bytes @ 0x20002010) - Data: 00 00 00 00  returns 0x00 (0000ms, 0648ms total)
T0E98 032:051 JLINK_ReadMem (0x00016700, 0x003C Bytes, ...) -- Read from C cache (60 bytes @ 0x00016700) - Data: 01 21 C9 03 3A 48 02 F0 47 FF 04 46 00 BF 25 46 ...  returns 0x00 (0001ms, 0649ms total)
T0E98 032:052 JLINK_Step() -- Read from C cache (2 bytes @ 0x00016700) -- Simulated  returns 0x00 (0001ms, 0650ms total)
T0E98 032:053 JLINK_ReadReg(R15 (PC))  returns 0x00016702 (0000ms, 0650ms total)
T0E98 032:053 JLINK_ReadReg(XPSR)  returns 0x21000000 (0000ms, 0650ms total)
T0E98 032:053 JLINK_Step() -- Read from C cache (2 bytes @ 0x00016702) -- Simulated  returns 0x00 (0000ms, 0650ms total)
T0E98 032:053 JLINK_ReadReg(R15 (PC))  returns 0x00016704 (0000ms, 0650ms total)
T0E98 032:053 JLINK_ReadReg(XPSR)  returns 0x01000000 (0001ms, 0651ms total)
T0E98 032:054 JLINK_Step() -- Read from C cache (2 bytes @ 0x00016704) -- CPU_ReadMem(64 bytes @ 0x000167C0) -- Updating C cache (64 bytes @ 0x000167C0) -- Read from C cache (4 bytes @ 0x000167F0) -- Simulated  returns 0x00 (0001ms, 0652ms total)
T0E98 032:055 JLINK_ReadReg(R15 (PC))  returns 0x00016706 (0000ms, 0652ms total)
T0E98 032:055 JLINK_ReadReg(XPSR)  returns 0x01000000 (0000ms, 0652ms total)
T0E98 032:056 JLINK_Step() -- Read from C cache (2 bytes @ 0x00016706) -- Read from C cache (2 bytes @ 0x00016708) -- Simulated  returns 0x00 (0000ms, 0652ms total)
T0E98 032:056 JLINK_ReadReg(R15 (PC))  returns 0x00019598 (0000ms, 0652ms total)
T0E98 032:056 JLINK_ReadReg(XPSR)  returns 0x01000000 (0000ms, 0652ms total)
T0E98 032:057 JLINK_ReadReg(R0)  returns 0x2000200C (0000ms, 0652ms total)
T0E98 032:057 JLINK_ReadReg(R1)  returns 0x00008000 (0000ms, 0652ms total)
T0E98 032:057 JLINK_ReadReg(R2)  returns 0x00000000 (0000ms, 0652ms total)
T0E98 032:057 JLINK_ReadReg(R3)  returns 0x00000000 (0000ms, 0652ms total)
T0E98 032:057 JLINK_ReadReg(R4)  returns 0x0001D068 (0000ms, 0652ms total)
T0E98 032:057 JLINK_ReadReg(R5)  returns 0x00000000 (0000ms, 0652ms total)
T0E98 032:057 JLINK_ReadReg(R6)  returns 0x00000000 (0000ms, 0652ms total)
T0E98 032:057 JLINK_ReadReg(R7)  returns 0x00000000 (0000ms, 0652ms total)
T0E98 032:057 JLINK_ReadReg(R8)  returns 0xFFFFFFFF (0000ms, 0652ms total)
T0E98 032:057 JLINK_ReadReg(R9)  returns 0xFFFFFFFF (0000ms, 0652ms total)
T0E98 032:057 JLINK_ReadReg(R10)  returns 0x0001D068 (0000ms, 0652ms total)
T0E98 032:057 JLINK_ReadReg(R11)  returns 0x0001D068 (0000ms, 0652ms total)
T0E98 032:057 JLINK_ReadReg(R12)  returns 0xFFFFFFFF (0000ms, 0652ms total)
T0E98 032:057 JLINK_ReadReg(R13 (SP))  returns 0x20003A10 (0000ms, 0652ms total)
T0E98 032:057 JLINK_ReadReg(R14)  returns 0x0001670B (0000ms, 0652ms total)
T0E98 032:057 JLINK_ReadReg(R15 (PC))  returns 0x00019598 (0000ms, 0652ms total)
T0E98 032:057 JLINK_ReadReg(XPSR)  returns 0x01000000 (0001ms, 0653ms total)
T0E98 032:058 JLINK_ReadReg(MSP)  returns 0x20003A10 (0000ms, 0653ms total)
T0E98 032:058 JLINK_ReadReg(PSP)  returns 0xFFFFFFFC (0000ms, 0653ms total)
T0E98 032:058 JLINK_ReadReg(CFBP)  returns 0x00000000 (0000ms, 0653ms total)
T051C 032:062 JLINK_ReadMem (0x20003A1C, 0x0004 Bytes, ...) -- Read from C cache (4 bytes @ 0x20003A1C) - Data: F5 63 01 00  returns 0x00 (0000ms, 0653ms total)
T051C 032:063 JLINK_ReadMem (0x20003A10, 0x0004 Bytes, ...) -- Read from C cache (4 bytes @ 0x20003A10) - Data: 68 D0 01 00  returns 0x00 (0000ms, 0653ms total)
T051C 032:063 JLINK_ReadMem (0x20003A14, 0x0004 Bytes, ...) -- Read from C cache (4 bytes @ 0x20003A14) - Data: 00 00 00 00  returns 0x00 (0000ms, 0653ms total)
T051C 032:063 JLINK_ReadMem (0x20003A18, 0x0004 Bytes, ...) -- Read from C cache (4 bytes @ 0x20003A18) - Data: 00 00 00 00  returns 0x00 (0000ms, 0653ms total)
T051C 032:063 JLINK_ReadMem (0x20003A24, 0x0004 Bytes, ...) -- Read from C cache (4 bytes @ 0x20003A24) - Data: 2F 61 01 00  returns 0x00 (0000ms, 0653ms total)
T051C 032:063 JLINK_ReadMem (0x00000000, 0x0004 Bytes, ...) -- Read from C cache (4 bytes @ 0x00000000) - Data: C0 07 00 00  returns 0x00 (0000ms, 0653ms total)
T051C 032:065 JLINK_ReadMem (0x20003A20, 0x0004 Bytes, ...) -- Read from C cache (4 bytes @ 0x20003A20) - Data: 04 00 00 00  returns 0x00 (0000ms, 0653ms total)
T051C 032:085 JLINK_ReadMem (0x2000200C, 0x0004 Bytes, ...) -- Read from C cache (4 bytes @ 0x2000200C) - Data: 00 00 00 00  returns 0x00 (0000ms, 0653ms total)
T051C 032:085 JLINK_ReadMem (0x20002010, 0x0004 Bytes, ...) -- Read from C cache (4 bytes @ 0x20002010) - Data: 00 00 00 00  returns 0x00 (0000ms, 0653ms total)
T051C 032:085 JLINK_ReadMem (0x00019594, 0x003C Bytes, ...) -- CPU_ReadMem(128 bytes @ 0x00019580) -- Updating C cache (128 bytes @ 0x00019580) -- Read from C cache (60 bytes @ 0x00019594) - Data: 00 20 99 E7 F8 B5 04 46 0D 46 00 BF 2E 48 00 78 ...  returns 0x00 (0002ms, 0655ms total)
T0E98 034:579 JLINK_Step() -- Read from C cache (2 bytes @ 0x00019598) -- CPU_WriteMem(24 bytes @ 0x200039F8) -- Simulated  returns 0x00 (0004ms, 0659ms total)
T0E98 034:583 JLINK_ReadReg(R15 (PC))  returns 0x0001959A (0000ms, 0659ms total)
T0E98 034:583 JLINK_ReadReg(XPSR)  returns 0x01000000 (0000ms, 0659ms total)
T0E98 034:583 JLINK_Step() -- Read from C cache (2 bytes @ 0x0001959A) -- Simulated  returns 0x00 (0000ms, 0659ms total)
T0E98 034:583 JLINK_ReadReg(R15 (PC))  returns 0x0001959C (0000ms, 0659ms total)
T0E98 034:583 JLINK_ReadReg(XPSR)  returns 0x01000000 (0000ms, 0659ms total)
T0E98 034:583 JLINK_Step() -- Read from C cache (2 bytes @ 0x0001959C) -- Simulated  returns 0x00 (0001ms, 0660ms total)
T0E98 034:584 JLINK_ReadReg(R15 (PC))  returns 0x0001959E (0000ms, 0660ms total)
T0E98 034:584 JLINK_ReadReg(XPSR)  returns 0x01000000 (0000ms, 0660ms total)
T0E98 034:584 JLINK_ReadReg(R0)  returns 0x2000200C (0000ms, 0660ms total)
T0E98 034:584 JLINK_ReadReg(R1)  returns 0x00008000 (0000ms, 0660ms total)
T0E98 034:584 JLINK_ReadReg(R2)  returns 0x00000000 (0000ms, 0660ms total)
T0E98 034:584 JLINK_ReadReg(R3)  returns 0x00000000 (0000ms, 0660ms total)
T0E98 034:584 JLINK_ReadReg(R4)  returns 0x2000200C (0000ms, 0660ms total)
T0E98 034:584 JLINK_ReadReg(R5)  returns 0x00008000 (0000ms, 0660ms total)
T0E98 034:584 JLINK_ReadReg(R6)  returns 0x00000000 (0000ms, 0660ms total)
T0E98 034:584 JLINK_ReadReg(R7)  returns 0x00000000 (0000ms, 0660ms total)
T0E98 034:584 JLINK_ReadReg(R8)  returns 0xFFFFFFFF (0000ms, 0660ms total)
T0E98 034:585 JLINK_ReadReg(R9)  returns 0xFFFFFFFF (0000ms, 0661ms total)
T0E98 034:585 JLINK_ReadReg(R10)  returns 0x0001D068 (0000ms, 0661ms total)
T0E98 034:585 JLINK_ReadReg(R11)  returns 0x0001D068 (0000ms, 0661ms total)
T0E98 034:585 JLINK_ReadReg(R12)  returns 0xFFFFFFFF (0000ms, 0661ms total)
T0E98 034:585 JLINK_ReadReg(R13 (SP))  returns 0x200039F8 (0000ms, 0661ms total)
T0E98 034:585 JLINK_ReadReg(R14)  returns 0x0001670B (0000ms, 0661ms total)
T0E98 034:585 JLINK_ReadReg(R15 (PC))  returns 0x0001959E (0000ms, 0661ms total)
T0E98 034:585 JLINK_ReadReg(XPSR)  returns 0x01000000 (0000ms, 0661ms total)
T0E98 034:585 JLINK_ReadReg(MSP)  returns 0x200039F8 (0000ms, 0661ms total)
T0E98 034:585 JLINK_ReadReg(PSP)  returns 0xFFFFFFFC (0000ms, 0661ms total)
T0E98 034:585 JLINK_ReadReg(CFBP)  returns 0x00000000 (0000ms, 0661ms total)
T051C 034:592 JLINK_ReadMem (0x20003A0C, 0x0004 Bytes, ...) -- CPU_ReadMem(64 bytes @ 0x20003A00) -- Updating C cache (64 bytes @ 0x20003A00) -- Read from C cache (4 bytes @ 0x20003A0C) - Data: 0B 67 01 00  returns 0x00 (0001ms, 0662ms total)
T051C 034:593 JLINK_ReadMem (0x200039FC, 0x0004 Bytes, ...) -- CPU_ReadMem(64 bytes @ 0x200039C0) -- Updating C cache (64 bytes @ 0x200039C0) -- Read from C cache (4 bytes @ 0x200039FC) - Data: 68 D0 01 00  returns 0x00 (0002ms, 0664ms total)
T051C 034:595 JLINK_ReadMem (0x20003A00, 0x0004 Bytes, ...) -- Read from C cache (4 bytes @ 0x20003A00) - Data: 00 00 00 00  returns 0x00 (0000ms, 0664ms total)
T051C 034:595 JLINK_ReadMem (0x20003A04, 0x0004 Bytes, ...) -- Read from C cache (4 bytes @ 0x20003A04) - Data: 00 00 00 00  returns 0x00 (0000ms, 0664ms total)
T051C 034:595 JLINK_ReadMem (0x20003A08, 0x0004 Bytes, ...) -- Read from C cache (4 bytes @ 0x20003A08) - Data: 00 00 00 00  returns 0x00 (0000ms, 0664ms total)
T051C 034:595 JLINK_ReadMem (0x20003A1C, 0x0004 Bytes, ...) -- Read from C cache (4 bytes @ 0x20003A1C) - Data: F5 63 01 00  returns 0x00 (0000ms, 0664ms total)
T051C 034:595 JLINK_ReadMem (0x20003A10, 0x0004 Bytes, ...) -- Read from C cache (4 bytes @ 0x20003A10) - Data: 68 D0 01 00  returns 0x00 (0000ms, 0664ms total)
T051C 034:595 JLINK_ReadMem (0x20003A14, 0x0004 Bytes, ...) -- Read from C cache (4 bytes @ 0x20003A14) - Data: 00 00 00 00  returns 0x00 (0000ms, 0664ms total)
T051C 034:595 JLINK_ReadMem (0x20003A18, 0x0004 Bytes, ...) -- Read from C cache (4 bytes @ 0x20003A18) - Data: 00 00 00 00  returns 0x00 (0000ms, 0664ms total)
T051C 034:595 JLINK_ReadMem (0x20003A24, 0x0004 Bytes, ...) -- Read from C cache (4 bytes @ 0x20003A24) - Data: 2F 61 01 00  returns 0x00 (0000ms, 0664ms total)
T051C 034:595 JLINK_ReadMem (0x00000000, 0x0004 Bytes, ...) -- Read from C cache (4 bytes @ 0x00000000) - Data: C0 07 00 00  returns 0x00 (0001ms, 0665ms total)
T051C 034:596 JLINK_ReadMem (0x20003A20, 0x0004 Bytes, ...) -- Read from C cache (4 bytes @ 0x20003A20) - Data: 04 00 00 00  returns 0x00 (0000ms, 0665ms total)
T051C 034:604 JLINK_ReadMem (0x2000200C, 0x0004 Bytes, ...) -- Read from C cache (4 bytes @ 0x2000200C) - Data: 00 00 00 00  returns 0x00 (0000ms, 0665ms total)
T051C 034:604 JLINK_ReadMem (0x20002010, 0x0004 Bytes, ...) -- Read from C cache (4 bytes @ 0x20002010) - Data: 00 00 00 00  returns 0x00 (0000ms, 0665ms total)
T051C 034:605 JLINK_ReadMem (0x00019598, 0x003C Bytes, ...) -- Read from C cache (60 bytes @ 0x00019598) - Data: F8 B5 04 46 0D 46 00 BF 2E 48 00 78 00 28 01 D1 ...  returns 0x00 (0000ms, 0665ms total)
T0E98 035:402 JLINK_Step() -- Read from C cache (2 bytes @ 0x0001959E) -- Simulated  returns 0x00 (0001ms, 0666ms total)
T0E98 035:403 JLINK_ReadReg(R15 (PC))  returns 0x000195A0 (0000ms, 0666ms total)
T0E98 035:403 JLINK_ReadReg(XPSR)  returns 0x01000000 (0000ms, 0666ms total)
T0E98 035:403 JLINK_ReadReg(R0)  returns 0x2000200C (0000ms, 0666ms total)
T0E98 035:403 JLINK_ReadReg(R1)  returns 0x00008000 (0000ms, 0666ms total)
T0E98 035:403 JLINK_ReadReg(R2)  returns 0x00000000 (0000ms, 0666ms total)
T0E98 035:403 JLINK_ReadReg(R3)  returns 0x00000000 (0000ms, 0666ms total)
T0E98 035:403 JLINK_ReadReg(R4)  returns 0x2000200C (0000ms, 0666ms total)
T0E98 035:403 JLINK_ReadReg(R5)  returns 0x00008000 (0000ms, 0666ms total)
T0E98 035:403 JLINK_ReadReg(R6)  returns 0x00000000 (0000ms, 0666ms total)
T0E98 035:403 JLINK_ReadReg(R7)  returns 0x00000000 (0000ms, 0666ms total)
T0E98 035:403 JLINK_ReadReg(R8)  returns 0xFFFFFFFF (0000ms, 0666ms total)
T0E98 035:403 JLINK_ReadReg(R9)  returns 0xFFFFFFFF (0001ms, 0667ms total)
T0E98 035:404 JLINK_ReadReg(R10)  returns 0x0001D068 (0000ms, 0667ms total)
T0E98 035:404 JLINK_ReadReg(R11)  returns 0x0001D068 (0000ms, 0667ms total)
T0E98 035:404 JLINK_ReadReg(R12)  returns 0xFFFFFFFF (0000ms, 0667ms total)
T0E98 035:404 JLINK_ReadReg(R13 (SP))  returns 0x200039F8 (0000ms, 0667ms total)
T0E98 035:404 JLINK_ReadReg(R14)  returns 0x0001670B (0000ms, 0667ms total)
T0E98 035:404 JLINK_ReadReg(R15 (PC))  returns 0x000195A0 (0000ms, 0667ms total)
T0E98 035:404 JLINK_ReadReg(XPSR)  returns 0x01000000 (0000ms, 0667ms total)
T0E98 035:404 JLINK_ReadReg(MSP)  returns 0x200039F8 (0000ms, 0667ms total)
T0E98 035:404 JLINK_ReadReg(PSP)  returns 0xFFFFFFFC (0000ms, 0667ms total)
T0E98 035:404 JLINK_ReadReg(CFBP)  returns 0x00000000 (0000ms, 0667ms total)
T051C 035:411 JLINK_ReadMem (0x20003A0C, 0x0004 Bytes, ...) -- Read from C cache (4 bytes @ 0x20003A0C) - Data: 0B 67 01 00  returns 0x00 (0000ms, 0667ms total)
T051C 035:411 JLINK_ReadMem (0x200039FC, 0x0004 Bytes, ...) -- Read from C cache (4 bytes @ 0x200039FC) - Data: 68 D0 01 00  returns 0x00 (0000ms, 0667ms total)
T051C 035:411 JLINK_ReadMem (0x20003A00, 0x0004 Bytes, ...) -- Read from C cache (4 bytes @ 0x20003A00) - Data: 00 00 00 00  returns 0x00 (0001ms, 0668ms total)
T051C 035:412 JLINK_ReadMem (0x20003A04, 0x0004 Bytes, ...) -- Read from C cache (4 bytes @ 0x20003A04) - Data: 00 00 00 00  returns 0x00 (0000ms, 0668ms total)
T051C 035:412 JLINK_ReadMem (0x20003A08, 0x0004 Bytes, ...) -- Read from C cache (4 bytes @ 0x20003A08) - Data: 00 00 00 00  returns 0x00 (0000ms, 0668ms total)
T051C 035:412 JLINK_ReadMem (0x20003A1C, 0x0004 Bytes, ...) -- Read from C cache (4 bytes @ 0x20003A1C) - Data: F5 63 01 00  returns 0x00 (0000ms, 0668ms total)
T051C 035:412 JLINK_ReadMem (0x20003A10, 0x0004 Bytes, ...) -- Read from C cache (4 bytes @ 0x20003A10) - Data: 68 D0 01 00  returns 0x00 (0000ms, 0668ms total)
T051C 035:412 JLINK_ReadMem (0x20003A14, 0x0004 Bytes, ...) -- Read from C cache (4 bytes @ 0x20003A14) - Data: 00 00 00 00  returns 0x00 (0000ms, 0668ms total)
T051C 035:412 JLINK_ReadMem (0x20003A18, 0x0004 Bytes, ...) -- Read from C cache (4 bytes @ 0x20003A18) - Data: 00 00 00 00  returns 0x00 (0000ms, 0668ms total)
T051C 035:412 JLINK_ReadMem (0x20003A24, 0x0004 Bytes, ...) -- Read from C cache (4 bytes @ 0x20003A24) - Data: 2F 61 01 00  returns 0x00 (0000ms, 0668ms total)
T051C 035:412 JLINK_ReadMem (0x00000000, 0x0004 Bytes, ...) -- Read from C cache (4 bytes @ 0x00000000) - Data: C0 07 00 00  returns 0x00 (0000ms, 0668ms total)
T051C 035:412 JLINK_ReadMem (0x20003A20, 0x0004 Bytes, ...) -- Read from C cache (4 bytes @ 0x20003A20) - Data: 04 00 00 00  returns 0x00 (0001ms, 0669ms total)
T051C 035:416 JLINK_ReadMem (0x2000200C, 0x0004 Bytes, ...) -- Read from C cache (4 bytes @ 0x2000200C) - Data: 00 00 00 00  returns 0x00 (0000ms, 0669ms total)
T051C 035:416 JLINK_ReadMem (0x20002010, 0x0004 Bytes, ...) -- Read from C cache (4 bytes @ 0x20002010) - Data: 00 00 00 00  returns 0x00 (0000ms, 0669ms total)
T051C 035:416 JLINK_ReadMem (0x000195A0, 0x003C Bytes, ...) -- Read from C cache (60 bytes @ 0x000195A0) - Data: 2E 48 00 78 00 28 01 D1 08 20 F8 BD 00 BF 00 2C ...  returns 0x00 (0000ms, 0669ms total)
T0E98 035:698 JLINK_Step() -- Read from C cache (2 bytes @ 0x000195A0) -- CPU_ReadMem(64 bytes @ 0x00019640) -- Updating C cache (64 bytes @ 0x00019640) -- Read from C cache (4 bytes @ 0x0001965C) -- Simulated  returns 0x00 (0002ms, 0671ms total)
T0E98 035:700 JLINK_ReadReg(R15 (PC))  returns 0x000195A2 (0000ms, 0671ms total)
T0E98 035:700 JLINK_ReadReg(XPSR)  returns 0x01000000 (0000ms, 0671ms total)
T0E98 035:700 JLINK_Step() -- Read from C cache (2 bytes @ 0x000195A2) -- CPU_ReadMem(64 bytes @ 0x20002080) -- Updating C cache (64 bytes @ 0x20002080) -- Read from C cache (1 bytes @ 0x200020A6) -- Simulated  returns 0x00 (0001ms, 0672ms total)
T0E98 035:701 JLINK_ReadReg(R15 (PC))  returns 0x000195A4 (0000ms, 0672ms total)
T0E98 035:701 JLINK_ReadReg(XPSR)  returns 0x01000000 (0000ms, 0672ms total)
T0E98 035:701 JLINK_Step() -- Read from C cache (2 bytes @ 0x000195A4) -- Simulated  returns 0x00 (0000ms, 0672ms total)
T0E98 035:701 JLINK_ReadReg(R15 (PC))  returns 0x000195A6 (0001ms, 0673ms total)
T0E98 035:702 JLINK_ReadReg(XPSR)  returns 0x21000000 (0000ms, 0673ms total)
T0E98 035:702 JLINK_Step() -- Read from C cache (2 bytes @ 0x000195A6) -- Simulated  returns 0x00 (0000ms, 0673ms total)
T0E98 035:702 JLINK_ReadReg(R15 (PC))  returns 0x000195AC (0000ms, 0673ms total)
T0E98 035:702 JLINK_ReadReg(XPSR)  returns 0x21000000 (0000ms, 0673ms total)
T0E98 035:702 JLINK_Step() -- Read from C cache (2 bytes @ 0x000195AC) -- Simulated  returns 0x00 (0000ms, 0673ms total)
T0E98 035:702 JLINK_ReadReg(R15 (PC))  returns 0x000195AE (0000ms, 0673ms total)
T0E98 035:702 JLINK_ReadReg(XPSR)  returns 0x21000000 (0000ms, 0673ms total)
T0E98 035:702 JLINK_ReadReg(R0)  returns 0x00000001 (0000ms, 0673ms total)
T0E98 035:702 JLINK_ReadReg(R1)  returns 0x00008000 (0000ms, 0673ms total)
T0E98 035:702 JLINK_ReadReg(R2)  returns 0x00000000 (0001ms, 0674ms total)
T0E98 035:703 JLINK_ReadReg(R3)  returns 0x00000000 (0000ms, 0674ms total)
T0E98 035:703 JLINK_ReadReg(R4)  returns 0x2000200C (0000ms, 0674ms total)
T0E98 035:703 JLINK_ReadReg(R5)  returns 0x00008000 (0000ms, 0674ms total)
T0E98 035:703 JLINK_ReadReg(R6)  returns 0x00000000 (0000ms, 0674ms total)
T0E98 035:703 JLINK_ReadReg(R7)  returns 0x00000000 (0000ms, 0674ms total)
T0E98 035:703 JLINK_ReadReg(R8)  returns 0xFFFFFFFF (0000ms, 0674ms total)
T0E98 035:703 JLINK_ReadReg(R9)  returns 0xFFFFFFFF (0000ms, 0674ms total)
T0E98 035:703 JLINK_ReadReg(R10)  returns 0x0001D068 (0000ms, 0674ms total)
T0E98 035:703 JLINK_ReadReg(R11)  returns 0x0001D068 (0000ms, 0674ms total)
T0E98 035:703 JLINK_ReadReg(R12)  returns 0xFFFFFFFF (0000ms, 0674ms total)
T0E98 035:703 JLINK_ReadReg(R13 (SP))  returns 0x200039F8 (0000ms, 0674ms total)
T0E98 035:703 JLINK_ReadReg(R14)  returns 0x0001670B (0000ms, 0674ms total)
T0E98 035:703 JLINK_ReadReg(R15 (PC))  returns 0x000195AE (0000ms, 0674ms total)
T0E98 035:703 JLINK_ReadReg(XPSR)  returns 0x21000000 (0001ms, 0675ms total)
T0E98 035:704 JLINK_ReadReg(MSP)  returns 0x200039F8 (0000ms, 0675ms total)
T0E98 035:704 JLINK_ReadReg(PSP)  returns 0xFFFFFFFC (0000ms, 0675ms total)
T0E98 035:704 JLINK_ReadReg(CFBP)  returns 0x00000000 (0000ms, 0675ms total)
T051C 035:709 JLINK_ReadMem (0x20003A0C, 0x0004 Bytes, ...) -- Read from C cache (4 bytes @ 0x20003A0C) - Data: 0B 67 01 00  returns 0x00 (0000ms, 0675ms total)
T051C 035:709 JLINK_ReadMem (0x200039FC, 0x0004 Bytes, ...) -- Read from C cache (4 bytes @ 0x200039FC) - Data: 68 D0 01 00  returns 0x00 (0000ms, 0675ms total)
T051C 035:709 JLINK_ReadMem (0x20003A00, 0x0004 Bytes, ...) -- Read from C cache (4 bytes @ 0x20003A00) - Data: 00 00 00 00  returns 0x00 (0000ms, 0675ms total)
T051C 035:709 JLINK_ReadMem (0x20003A04, 0x0004 Bytes, ...) -- Read from C cache (4 bytes @ 0x20003A04) - Data: 00 00 00 00  returns 0x00 (0000ms, 0675ms total)
T051C 035:709 JLINK_ReadMem (0x20003A08, 0x0004 Bytes, ...) -- Read from C cache (4 bytes @ 0x20003A08) - Data: 00 00 00 00  returns 0x00 (0000ms, 0675ms total)
T051C 035:709 JLINK_ReadMem (0x20003A1C, 0x0004 Bytes, ...) -- Read from C cache (4 bytes @ 0x20003A1C) - Data: F5 63 01 00  returns 0x00 (0001ms, 0676ms total)
T051C 035:710 JLINK_ReadMem (0x20003A10, 0x0004 Bytes, ...) -- Read from C cache (4 bytes @ 0x20003A10) - Data: 68 D0 01 00  returns 0x00 (0000ms, 0676ms total)
T051C 035:710 JLINK_ReadMem (0x20003A14, 0x0004 Bytes, ...) -- Read from C cache (4 bytes @ 0x20003A14) - Data: 00 00 00 00  returns 0x00 (0000ms, 0676ms total)
T051C 035:710 JLINK_ReadMem (0x20003A18, 0x0004 Bytes, ...) -- Read from C cache (4 bytes @ 0x20003A18) - Data: 00 00 00 00  returns 0x00 (0000ms, 0676ms total)
T051C 035:710 JLINK_ReadMem (0x20003A24, 0x0004 Bytes, ...) -- Read from C cache (4 bytes @ 0x20003A24) - Data: 2F 61 01 00  returns 0x00 (0000ms, 0676ms total)
T051C 035:710 JLINK_ReadMem (0x00000000, 0x0004 Bytes, ...) -- Read from C cache (4 bytes @ 0x00000000) - Data: C0 07 00 00  returns 0x00 (0000ms, 0676ms total)
T051C 035:710 JLINK_ReadMem (0x20003A20, 0x0004 Bytes, ...) -- Read from C cache (4 bytes @ 0x20003A20) - Data: 04 00 00 00  returns 0x00 (0000ms, 0676ms total)
T051C 035:714 JLINK_ReadMem (0x2000200C, 0x0004 Bytes, ...) -- Read from C cache (4 bytes @ 0x2000200C) - Data: 00 00 00 00  returns 0x00 (0000ms, 0676ms total)
T051C 035:714 JLINK_ReadMem (0x20002010, 0x0004 Bytes, ...) -- Read from C cache (4 bytes @ 0x20002010) - Data: 00 00 00 00  returns 0x00 (0000ms, 0676ms total)
T0E98 036:179 JLINK_ReadMem (0x000195AE, 0x0002 Bytes, ...) -- Read from C cache (2 bytes @ 0x000195AE) - Data: 00 2C  returns 0x00 (0000ms, 0676ms total)
T0E98 036:179 JLINK_ReadMem (0x000195B0, 0x003C Bytes, ...) -- Read from C cache (60 bytes @ 0x000195B0) - Data: 01 D1 0E 20 F9 E7 20 68 02 28 05 D2 20 68 00 01 ...  returns 0x00 (0000ms, 0676ms total)
T0E98 036:179 JLINK_Step() -- Read from C cache (2 bytes @ 0x000195AE) -- Simulated  returns 0x00 (0001ms, 0677ms total)
T0E98 036:180 JLINK_ReadReg(R15 (PC))  returns 0x000195B0 (0000ms, 0677ms total)
T0E98 036:180 JLINK_ReadReg(XPSR)  returns 0x21000000 (0000ms, 0677ms total)
T0E98 036:180 JLINK_Step() -- Read from C cache (2 bytes @ 0x000195B0) -- Simulated  returns 0x00 (0001ms, 0678ms total)
T0E98 036:181 JLINK_ReadReg(R15 (PC))  returns 0x000195B6 (0000ms, 0678ms total)
T0E98 036:181 JLINK_ReadReg(XPSR)  returns 0x21000000 (0000ms, 0678ms total)
T0E98 036:181 JLINK_ReadReg(R0)  returns 0x00000001 (0000ms, 0678ms total)
T0E98 036:181 JLINK_ReadReg(R1)  returns 0x00008000 (0000ms, 0678ms total)
T0E98 036:181 JLINK_ReadReg(R2)  returns 0x00000000 (0000ms, 0678ms total)
T0E98 036:181 JLINK_ReadReg(R3)  returns 0x00000000 (0000ms, 0678ms total)
T0E98 036:181 JLINK_ReadReg(R4)  returns 0x2000200C (0000ms, 0678ms total)
T0E98 036:181 JLINK_ReadReg(R5)  returns 0x00008000 (0000ms, 0678ms total)
T0E98 036:181 JLINK_ReadReg(R6)  returns 0x00000000 (0000ms, 0678ms total)
T0E98 036:181 JLINK_ReadReg(R7)  returns 0x00000000 (0000ms, 0678ms total)
T0E98 036:181 JLINK_ReadReg(R8)  returns 0xFFFFFFFF (0000ms, 0678ms total)
T0E98 036:181 JLINK_ReadReg(R9)  returns 0xFFFFFFFF (0000ms, 0678ms total)
T0E98 036:181 JLINK_ReadReg(R10)  returns 0x0001D068 (0000ms, 0678ms total)
T0E98 036:181 JLINK_ReadReg(R11)  returns 0x0001D068 (0000ms, 0678ms total)
T0E98 036:181 JLINK_ReadReg(R12)  returns 0xFFFFFFFF (0000ms, 0678ms total)
T0E98 036:181 JLINK_ReadReg(R13 (SP))  returns 0x200039F8 (0000ms, 0678ms total)
T0E98 036:182 JLINK_ReadReg(R14)  returns 0x0001670B (0000ms, 0679ms total)
T0E98 036:182 JLINK_ReadReg(R15 (PC))  returns 0x000195B6 (0000ms, 0679ms total)
T0E98 036:182 JLINK_ReadReg(XPSR)  returns 0x21000000 (0000ms, 0679ms total)
T0E98 036:182 JLINK_ReadReg(MSP)  returns 0x200039F8 (0000ms, 0679ms total)
T0E98 036:182 JLINK_ReadReg(PSP)  returns 0xFFFFFFFC (0000ms, 0679ms total)
T0E98 036:182 JLINK_ReadReg(CFBP)  returns 0x00000000 (0000ms, 0679ms total)
T051C 036:189 JLINK_ReadMem (0x20003A0C, 0x0004 Bytes, ...) -- Read from C cache (4 bytes @ 0x20003A0C) - Data: 0B 67 01 00  returns 0x00 (0000ms, 0679ms total)
T051C 036:189 JLINK_ReadMem (0x200039FC, 0x0004 Bytes, ...) -- Read from C cache (4 bytes @ 0x200039FC) - Data: 68 D0 01 00  returns 0x00 (0000ms, 0679ms total)
T051C 036:189 JLINK_ReadMem (0x20003A00, 0x0004 Bytes, ...) -- Read from C cache (4 bytes @ 0x20003A00) - Data: 00 00 00 00  returns 0x00 (0000ms, 0679ms total)
T051C 036:189 JLINK_ReadMem (0x20003A04, 0x0004 Bytes, ...) -- Read from C cache (4 bytes @ 0x20003A04) - Data: 00 00 00 00  returns 0x00 (0000ms, 0679ms total)
T051C 036:189 JLINK_ReadMem (0x20003A08, 0x0004 Bytes, ...) -- Read from C cache (4 bytes @ 0x20003A08) - Data: 00 00 00 00  returns 0x00 (0000ms, 0679ms total)
T051C 036:189 JLINK_ReadMem (0x20003A1C, 0x0004 Bytes, ...) -- Read from C cache (4 bytes @ 0x20003A1C) - Data: F5 63 01 00  returns 0x00 (0000ms, 0679ms total)
T051C 036:190 JLINK_ReadMem (0x20003A10, 0x0004 Bytes, ...) -- Read from C cache (4 bytes @ 0x20003A10) - Data: 68 D0 01 00  returns 0x00 (0000ms, 0680ms total)
T051C 036:190 JLINK_ReadMem (0x20003A14, 0x0004 Bytes, ...) -- Read from C cache (4 bytes @ 0x20003A14) - Data: 00 00 00 00  returns 0x00 (0000ms, 0680ms total)
T051C 036:190 JLINK_ReadMem (0x20003A18, 0x0004 Bytes, ...) -- Read from C cache (4 bytes @ 0x20003A18) - Data: 00 00 00 00  returns 0x00 (0000ms, 0680ms total)
T051C 036:190 JLINK_ReadMem (0x20003A24, 0x0004 Bytes, ...) -- Read from C cache (4 bytes @ 0x20003A24) - Data: 2F 61 01 00  returns 0x00 (0000ms, 0680ms total)
T051C 036:190 JLINK_ReadMem (0x00000000, 0x0004 Bytes, ...) -- Read from C cache (4 bytes @ 0x00000000) - Data: C0 07 00 00  returns 0x00 (0000ms, 0680ms total)
T051C 036:190 JLINK_ReadMem (0x20003A20, 0x0004 Bytes, ...) -- Read from C cache (4 bytes @ 0x20003A20) - Data: 04 00 00 00  returns 0x00 (0000ms, 0680ms total)
T051C 036:194 JLINK_ReadMem (0x2000200C, 0x0004 Bytes, ...) -- Read from C cache (4 bytes @ 0x2000200C) - Data: 00 00 00 00  returns 0x00 (0000ms, 0680ms total)
T051C 036:194 JLINK_ReadMem (0x20002010, 0x0004 Bytes, ...) -- Read from C cache (4 bytes @ 0x20002010) - Data: 00 00 00 00  returns 0x00 (0000ms, 0680ms total)
T0E98 036:466 JLINK_ReadMem (0x000195B6, 0x0002 Bytes, ...) -- Read from C cache (2 bytes @ 0x000195B6) - Data: 20 68  returns 0x00 (0000ms, 0680ms total)
T0E98 036:466 JLINK_ReadMem (0x000195B8, 0x003C Bytes, ...) -- Read from C cache (60 bytes @ 0x000195B8) - Data: 02 28 05 D2 20 68 00 01 25 49 08 58 00 28 01 D1 ...  returns 0x00 (0000ms, 0680ms total)
T0E98 036:466 JLINK_Step() -- Read from C cache (2 bytes @ 0x000195B6) -- Read from C cache (4 bytes @ 0x2000200C) -- Simulated  returns 0x00 (0000ms, 0680ms total)
T0E98 036:466 JLINK_ReadReg(R15 (PC))  returns 0x000195B8 (0000ms, 0680ms total)
T0E98 036:466 JLINK_ReadReg(XPSR)  returns 0x21000000 (0000ms, 0680ms total)
T0E98 036:466 JLINK_Step() -- Read from C cache (2 bytes @ 0x000195B8) -- Simulated  returns 0x00 (0000ms, 0680ms total)
T0E98 036:466 JLINK_ReadReg(R15 (PC))  returns 0x000195BA (0000ms, 0680ms total)
T0E98 036:466 JLINK_ReadReg(XPSR)  returns 0x81000000 (0000ms, 0680ms total)
T0E98 036:466 JLINK_Step() -- Read from C cache (2 bytes @ 0x000195BA) -- Simulated  returns 0x00 (0000ms, 0680ms total)
T0E98 036:466 JLINK_ReadReg(R15 (PC))  returns 0x000195BC (0000ms, 0680ms total)
T0E98 036:466 JLINK_ReadReg(XPSR)  returns 0x81000000 (0000ms, 0680ms total)
T0E98 036:467 JLINK_Step() -- Read from C cache (2 bytes @ 0x000195BC) -- Read from C cache (4 bytes @ 0x2000200C) -- Simulated  returns 0x00 (0000ms, 0681ms total)
T0E98 036:467 JLINK_ReadReg(R15 (PC))  returns 0x000195BE (0000ms, 0681ms total)
T0E98 036:467 JLINK_ReadReg(XPSR)  returns 0x81000000 (0000ms, 0681ms total)
T0E98 036:467 JLINK_Step() -- Read from C cache (2 bytes @ 0x000195BE) -- Simulated  returns 0x00 (0000ms, 0681ms total)
T0E98 036:467 JLINK_ReadReg(R15 (PC))  returns 0x000195C0 (0000ms, 0681ms total)
T0E98 036:467 JLINK_ReadReg(XPSR)  returns 0x41000000 (0000ms, 0681ms total)
T0E98 036:467 JLINK_Step() -- Read from C cache (2 bytes @ 0x000195C0) -- Read from C cache (4 bytes @ 0x00019658) -- Simulated  returns 0x00 (0000ms, 0681ms total)
T0E98 036:467 JLINK_ReadReg(R15 (PC))  returns 0x000195C2 (0000ms, 0681ms total)
T0E98 036:467 JLINK_ReadReg(XPSR)  returns 0x41000000 (0000ms, 0681ms total)
T0E98 036:467 JLINK_Step() -- Read from C cache (2 bytes @ 0x000195C2) -- CPU_ReadMem(64 bytes @ 0x20002800) -- Updating C cache (64 bytes @ 0x20002800) -- Read from C cache (4 bytes @ 0x2000281C) -- Simulated  returns 0x00 (0001ms, 0682ms total)
T0E98 036:468 JLINK_ReadReg(R15 (PC))  returns 0x000195C4 (0000ms, 0682ms total)
T0E98 036:469 JLINK_ReadReg(XPSR)  returns 0x41000000 (0000ms, 0683ms total)
T0E98 036:469 JLINK_Step() -- Read from C cache (2 bytes @ 0x000195C4) -- Simulated  returns 0x00 (0000ms, 0683ms total)
T0E98 036:469 JLINK_ReadReg(R15 (PC))  returns 0x000195C6 (0000ms, 0683ms total)
T0E98 036:469 JLINK_ReadReg(XPSR)  returns 0x21000000 (0000ms, 0683ms total)
T0E98 036:469 JLINK_Step() -- Read from C cache (2 bytes @ 0x000195C6) -- Simulated  returns 0x00 (0000ms, 0683ms total)
T0E98 036:469 JLINK_ReadReg(R15 (PC))  returns 0x000195CC (0000ms, 0683ms total)
T0E98 036:469 JLINK_ReadReg(XPSR)  returns 0x21000000 (0000ms, 0683ms total)
T0E98 036:469 JLINK_ReadReg(R0)  returns 0x00016769 (0000ms, 0683ms total)
T0E98 036:469 JLINK_ReadReg(R1)  returns 0x2000281C (0000ms, 0683ms total)
T0E98 036:469 JLINK_ReadReg(R2)  returns 0x00000000 (0000ms, 0683ms total)
T0E98 036:469 JLINK_ReadReg(R3)  returns 0x00000000 (0000ms, 0683ms total)
T0E98 036:469 JLINK_ReadReg(R4)  returns 0x2000200C (0000ms, 0683ms total)
T0E98 036:469 JLINK_ReadReg(R5)  returns 0x00008000 (0000ms, 0683ms total)
T0E98 036:469 JLINK_ReadReg(R6)  returns 0x00000000 (0000ms, 0683ms total)
T0E98 036:470 JLINK_ReadReg(R7)  returns 0x00000000 (0000ms, 0683ms total)
T0E98 036:470 JLINK_ReadReg(R8)  returns 0xFFFFFFFF (0000ms, 0683ms total)
T0E98 036:470 JLINK_ReadReg(R9)  returns 0xFFFFFFFF (0000ms, 0683ms total)
T0E98 036:470 JLINK_ReadReg(R10)  returns 0x0001D068 (0000ms, 0683ms total)
T0E98 036:470 JLINK_ReadReg(R11)  returns 0x0001D068 (0000ms, 0683ms total)
